! Coilcraft 1111SQ-39N Air Core Inductor			
! 14 MAR 2012
# MHZ S MA R 50
!-----------------------------------------------------------------------------
!Freq             MagS11           AngS11           MagS21           AngS21           MagS12           AngS12           MagS22           AngS22
 10               0.0241890116     81.640573        0.996771193     -1.37700407       0.996771193     -1.37700407       0.0241891358     81.6406091      
 15               0.0361217021     83.2671269       0.996412169     -2.06503599       0.996412169     -2.06503599       0.036121889      83.2671511      
 20               0.0480690541     83.7431593       0.995910154     -2.75250462       0.995910154     -2.75250462       0.0480693036     83.7431775      
 25               0.0600083855     83.755973        0.995265762     -3.43922366       0.995265762     -3.43922366       0.0600086974     83.7559876      
 30               0.0719288325     83.5370007       0.994479782     -4.125008         0.994479782     -4.125008         0.0719292066     83.5370128      
 35               0.0838229755     83.1859436       0.993553169     -4.8096741        0.993553169     -4.8096741        0.0838234117     83.185954       
 40               0.0956847333     82.7528515       0.992487048     -5.49304019       0.992487048     -5.49304019       0.0956852314     82.7528607      
 45               0.107508664      82.2656449       0.991282703     -6.17492664       0.991282703     -6.17492664       0.107509223      82.265653       
 50               0.119289687      81.7411592       0.989941579     -6.85515618       0.989941579     -6.85515618       0.119290309      81.7411665      
 55               0.13102297       81.1901757       0.988465272     -7.53355417       0.988465272     -7.53355417       0.131023652      81.1901823      
 60               0.142703862      80.6199396       0.986855529     -8.20994889       0.986855529     -8.20994889       0.142704605      80.6199457      
 65               0.154327874      80.0355179       0.985114236     -8.88417175       0.985114236     -8.88417175       0.154328678      80.0355236      
 70               0.165890666      79.4405752       0.983243418     -9.55605753       0.983243418     -9.55605753       0.16589153       79.4405804      
 75               0.177388036      78.8378392       0.981245228     -10.2254446       0.981245228     -10.2254446       0.17738896       78.8378441      
 80               0.188815927      78.2293927       0.979121946     -10.8921752       0.979121946     -10.8921752       0.18881691       78.2293973      
 85               0.20017042       77.6168612       0.976875963     -11.5560954       0.976875963     -11.5560954       0.200171463      77.6168655      
 90               0.211447743      77.0015389       0.974509783     -12.2170557       0.974509783     -12.2170557       0.211448845      77.0015429      
 95               0.22264427       76.3844744       0.972026011     -12.8749105       0.972026011     -12.8749105       0.22264543       76.3844783      
 100              0.233756522      75.7665314       0.969427345     -13.5295192       0.969427345     -13.5295192       0.233757739      75.766535       
 105              0.244781174      75.1484306       0.966716571     -14.1807455       0.966716571     -14.1807455       0.244782449      75.1484341      
 110              0.255715054      74.5307818       0.963896552     -14.8284578       0.963896552     -14.8284578       0.255716386      74.5307851      
 115              0.266555145      73.9141066       0.960970224     -15.4725295       0.960970224     -15.4725295       0.266556534      73.9141098      
 120              0.27729859       73.2988556       0.957940585     -16.1128387       0.957940585     -16.1128387       0.277300035      73.2988587      
 125              0.287942689      72.6854217       0.954810687     -16.7492688       0.954810687     -16.7492688       0.287944189      72.6854246      
 130              0.298484898      72.0741499       0.951583634     -17.381708        0.951583634     -17.381708        0.298486453      72.0741527      
 135              0.308922838      71.4653456       0.948262566     -18.0100496       0.948262566     -18.0100496       0.308924448      71.4653483      
 140              0.319254285      70.8592805       0.944850658     -18.6341921       0.944850658     -18.6341921       0.319255948      70.8592831      
 145              0.329477174      70.2561974       0.941351109     -19.2540391       0.941351109     -19.2540391       0.32947889       70.2561999      
 150              0.339589597      69.6563144       0.93776714      -19.8694993       0.93776714      -19.8694993       0.339591367      69.6563168      
 155              0.349589804      69.059828        0.93410198      -20.4804865       0.93410198      -20.4804865       0.349591626      69.0598303      
 160              0.359476196      68.4669155       0.930358864     -21.0869198       0.930358864     -21.0869198       0.359478069      68.4669177      
 165              0.369247327      67.8777374       0.926541027     -21.6887231       0.926541027     -21.6887231       0.369249251      67.8777397      
 170              0.3789019        67.2924393       0.922651694     -22.2858254       0.922651694     -22.2858254       0.378903874      67.2924415      
 175              0.388438762      66.7111529       0.91869408      -22.8781607       0.91869408      -22.8781607       0.388440786      66.711155       
 180              0.397856905      66.1339976       0.914671379     -23.4656679       0.914671379     -23.4656679       0.397858978      66.1339997      
 185              0.407155461      65.5610818       0.910586761     -24.0482907       0.910586761     -24.0482907       0.407157583      65.5610838      
 190              0.416333696      64.9925032       0.906443367     -24.6259776       0.906443367     -24.6259776       0.416335865      64.9925052      
 195              0.425391008      64.4283503       0.902244306     -25.1986816       0.902244306     -25.1986816       0.425393224      64.4283522      
 200              0.434326924      63.8687026       0.897992646     -25.7663603       0.897992646     -25.7663603       0.434329187      63.8687044      
 205              0.443141093      63.3136314       0.893691415     -26.3289759       0.893691415     -26.3289759       0.443143402      63.3136332      
 210              0.451833285      62.7632005       0.889343596     -26.8864947       0.889343596     -26.8864947       0.45183564       62.7632023      
 215              0.460403385      62.2174664       0.884952121     -27.4388875       0.884952121     -27.4388875       0.460405783      62.2174681      
 220              0.468851385      61.676479        0.88051987      -27.986129        0.88051987      -27.986129        0.468853828      61.6764807      
 225              0.477177387      61.1402819       0.87604967      -28.5281979       0.87604967      -28.5281979       0.477179873      61.1402835      
 230              0.485381592      60.6089126       0.871544288     -29.0650769       0.871544288     -29.0650769       0.485384121      60.6089142      
 235              0.493464297      60.0824035       0.867006432     -29.5967524       0.867006432     -29.5967524       0.493466868      60.082405       
 240              0.501425893      59.5607812       0.86243875      -30.1232143       0.86243875      -30.1232143       0.501428505      59.5607827      
 245              0.509266856      59.0440677       0.857843823     -30.6444561       0.857843823     -30.6444561       0.509269509      59.0440692      
 250              0.516987745      58.5322801       0.85322417      -31.1604746       0.85322417      -31.1604746       0.516990439      58.5322816      
 255              0.524589199      58.0254314       0.848582244     -31.6712698       0.848582244     -31.6712698       0.524591933      58.0254328      
 260              0.532071929      57.52353         0.843920429     -32.1768449       0.843920429     -32.1768449       0.532074702      57.5235314      
 265              0.539436716      57.0265808       0.839241043     -32.677206        0.839241043     -32.677206        0.539439526      57.0265822      
 270              0.546684403      56.5345846       0.834546335     -33.1723618       0.834546335     -33.1723618       0.546687252      56.534586       
 275              0.553815899      56.047539        0.829838485     -33.6623242       0.829838485     -33.6623242       0.553818784      56.0475403      
 280              0.560832164      55.5654381       0.825119605     -34.1471071       0.825119605     -34.1471071       0.560835086      55.5654394      
 285              0.567734215      55.0882729       0.820391737     -34.6267274       0.820391737     -34.6267274       0.567737173      55.0882741      
 290              0.574523113      54.6160315       0.815656857     -35.1012039       0.815656857     -35.1012039       0.574526107      54.6160327      
 295              0.581199969      54.1486993       0.810916869     -35.5705578       0.810916869     -35.5705578       0.581202997      54.1487005      
 300              0.58776593       53.686259        0.806173613     -36.0348123       0.806173613     -36.0348123       0.587768992      53.6862602      
 305              0.594222183      53.2286908       0.801428858     -36.4939926       0.801428858     -36.4939926       0.594225279      53.228692       
 310              0.600569948      52.7759729       0.79668431      -36.9481259       0.79668431      -36.9481259       0.600573078      52.7759741      
 315              0.606810478      52.3280811       0.791941607     -37.3972408       0.791941607     -37.3972408       0.60681364       52.3280823      
 320              0.612945051      51.8849893       0.787202324     -37.8413679       0.787202324     -37.8413679       0.612948245      51.8849904      
 325              0.61897497       51.4466694       0.78246797      -38.280539        0.78246797      -38.280539        0.618978195      51.4466705      
 330              0.624901561      51.0130918       0.777739993     -38.7147876       0.777739993     -38.7147876       0.624904817      51.0130929      
 335              0.630726166      50.584225        0.773019779     -39.1441484       0.773019779     -39.1441484       0.630729452      50.5842261      
 340              0.636450147      50.1600362       0.768308655     -39.5686573       0.768308655     -39.5686573       0.636453463      50.1600373      
 345              0.642074876      49.7404913       0.763607886     -39.9883514       0.763607886     -39.9883514       0.642078221      49.7404923      
 350              0.647601739      49.3255545       0.758918683     -40.4032688       0.758918683     -40.4032688       0.647605113      49.3255556      
 355              0.653032129      48.9151894       0.754242196     -40.8134486       0.754242196     -40.8134486       0.653035532      48.9151904      
 360              0.658367448      48.509358        0.749579525     -41.2189308       0.749579525     -41.2189308       0.658370878      48.509359       
 365              0.6636091        48.1080217       0.744931712     -41.6197561       0.744931712     -41.6197561       0.663612557      48.1080227      
 370              0.668758494      47.7111407       0.740299751     -42.015966        0.740299751     -42.015966        0.668761979      47.7111417      
 375              0.673817041      47.3186745       0.735684581     -42.4076027       0.735684581     -42.4076027       0.673820552      47.3186755      
 380              0.678786148      46.930582        0.731087094     -42.7947088       0.731087094     -42.7947088       0.678789685      46.930583       
 385              0.683667223      46.5468213       0.726508135     -43.1773276       0.726508135     -43.1773276       0.683670785      46.5468223      
 390              0.688461669      46.1673499       0.7219485       -43.5555029       0.7219485       -43.5555029       0.688465257      46.1673509      
 395              0.693170885      45.7921249       0.717408942     -43.9292785       0.717408942     -43.9292785       0.693174497      45.7921258      
 400              0.697796262      45.4211028       0.712890169     -44.298699        0.712890169     -44.298699        0.697799897      45.4211037      
 405              0.702339184      45.0542399       0.708392849     -44.6638091       0.708392849     -44.6638091       0.702342843      45.0542408      
 410              0.706801028      44.691492        0.703917608     -45.0246535       0.703917608     -45.0246535       0.706804711      44.6914929      
 415              0.71118316       44.3328147       0.699465031     -45.3812774       0.699465031     -45.3812774       0.711186865      44.3328156      
 420              0.715486935      43.9781635       0.695035669     -45.733726        0.695035669     -45.733726        0.715490663      43.9781644      
 425              0.719713698      43.6274935       0.690630032     -46.0820446       0.690630032     -46.0820446       0.719717448      43.6274943      
 430              0.72386478       43.2807598       0.686248598     -46.4262784       0.686248598     -46.4262784       0.723868552      43.2807606      
 435              0.727941501      42.9379175       0.68189181      -46.7664727       0.68189181      -46.7664727       0.727945294      42.9379183      
 440              0.731945167      42.5989215       0.677560078     -47.1026729       0.677560078     -47.1026729       0.73194898       42.5989223      
 445              0.735877068      42.2637269       0.673253781     -47.4349241       0.673253781     -47.4349241       0.735880902      42.2637277      
 450              0.739738481      41.9322886       0.668973267     -47.7632714       0.668973267     -47.7632714       0.739742335      41.9322894      
 455              0.743530667      41.6045619       0.664718857     -48.0877598       0.664718857     -48.0877598       0.743534541      41.6045627      
 460              0.747254872      41.2805019       0.660490842     -48.408434        0.660490842     -48.408434        0.747258765      41.2805027      
 465              0.750912326      40.960064        0.656289488     -48.7253387       0.656289488     -48.7253387       0.750916238      40.9600648      
 470              0.754504241      40.6432038       0.652115035     -49.0385181       0.652115035     -49.0385181       0.754508172      40.6432046      
 475              0.758031816      40.3298769       0.647967697     -49.3480164       0.647967697     -49.3480164       0.758035765      40.3298777      
 480              0.761496229      40.0200394       0.643847666     -49.6538774       0.643847666     -49.6538774       0.761500196      40.0200402      
 485              0.764898643      39.7136474       0.639755113     -49.9561447       0.639755113     -49.9561447       0.764902628      39.7136482      
 490              0.768240204      39.4106574       0.635690185     -50.2548616       0.635690185     -50.2548616       0.768244207      39.4106582      
 495              0.771522041      39.1110262       0.63165301      -50.5500709       0.63165301      -50.5500709       0.771526061      39.1110269      
 500              0.774745263      38.8147108       0.627643697     -50.8418153       0.627643697     -50.8418153       0.7747493        38.8147115      
 505              0.777910965      38.5216685       0.623662334     -51.130137        0.623662334     -51.130137        0.777915018      38.5216692      
 510              0.781020221      38.2318571       0.619708994     -51.4150778       0.619708994     -51.4150778       0.78102429       38.2318578      
 515              0.78407409       37.9452347       0.615783731     -51.6966792       0.615783731     -51.6966792       0.784078176      37.9452354      
 520              0.787073613      37.6617596       0.611886585     -51.9749822       0.611886585     -51.9749822       0.787077714      37.6617603      
 525              0.790019813      37.3813907       0.608017579     -52.2500277       0.608017579     -52.2500277       0.790023929      37.3813914      
 530              0.792913695      37.1040871       0.604176723     -52.5218557       0.604176723     -52.5218557       0.792917826      37.1040878      
 535              0.795756247      36.8298084       0.600364011     -52.7905062       0.600364011     -52.7905062       0.795760393      36.829809       
 540              0.79854844       36.5585145       0.596579426     -53.0560186       0.596579426     -53.0560186       0.798552601      36.5585152      
 545              0.801291229      36.290166        0.592822938     -53.3184318       0.592822938     -53.3184318       0.801295404      36.2901666      
 550              0.803985549      36.0247234       0.589094505     -53.5777843       0.589094505     -53.5777843       0.803989738      36.0247241      
 555              0.80663232       35.7621482       0.585394073     -53.8341143       0.585394073     -53.8341143       0.806636523      35.7621489      
 560              0.809232446      35.502402        0.58172158      -54.0874594       0.58172158      -54.0874594       0.809236662      35.5024026      
 565              0.811786812      35.2454467       0.578076951     -54.3378567       0.578076951     -54.3378567       0.811791041      35.2454474      
 570              0.814296288      34.991245        0.574460103     -54.585343        0.574460103     -54.585343        0.814300531      34.9912457      
 575              0.816761728      34.7397599       0.570870946     -54.8299545       0.570870946     -54.8299545       0.816765984      34.7397605      
 580              0.81918397       34.4909547       0.567309378     -55.0717271       0.567309378     -55.0717271       0.819188238      34.4909553      
 585              0.821563834      34.2447933       0.563775292     -55.310696        0.563775292     -55.310696        0.821568115      34.2447939      
 590              0.823902128      34.0012399       0.560268573     -55.5468962       0.560268573     -55.5468962       0.82390642       34.0012405      
 595              0.82619964       33.7602594       0.556789097     -55.780362        0.556789097     -55.780362        0.826203945      33.76026        
 600              0.828457147      33.5218169       0.553336737     -56.0111274       0.553336737     -56.0111274       0.828461463      33.5218176      
 605              0.830675407      33.2858781       0.549911358     -56.2392258       0.549911358     -56.2392258       0.830679735      33.2858787      
 610              0.832855168      33.0524091       0.546512818     -56.4646903       0.546512818     -56.4646903       0.832859507      33.0524097      
 615              0.834997158      32.8213763       0.543140973     -56.6875535       0.543140973     -56.6875535       0.835001509      32.8213769      
 620              0.837102095      32.5927468       0.539795671     -56.9078474       0.539795671     -56.9078474       0.837106457      32.5927474      
 625              0.83917068       32.3664879       0.536476756     -57.1256037       0.536476756     -57.1256037       0.839175053      32.3664885      
 630              0.841203602      32.1425676       0.533184071     -57.3408536       0.533184071     -57.3408536       0.841207985      32.1425682      
 635              0.843201534      31.9209542       0.52991745      -57.5536277       0.52991745      -57.5536277       0.843205927      31.9209548      
 640              0.845165138      31.7016163       0.526676727     -57.7639565       0.526676727     -57.7639565       0.845169542      31.7016169      
