# MHz S MA R 50

1 4.443e-3 41.313 0.997 -0.169 0.997 -0.169 4.443e-3 41.313 
1.047 4.553e-3 42.437 0.997 -0.177 0.997 -0.177 4.553e-3 42.437 
1.097 4.669e-3 43.56 0.997 -0.185 0.997 -0.185 4.669e-3 43.56 
1.149 4.792e-3 44.682 0.997 -0.194 0.997 -0.194 4.792e-3 44.682 
1.203 4.923e-3 45.801 0.997 -0.203 0.997 -0.203 4.923e-3 45.801 
1.26 5.061e-3 46.915 0.997 -0.213 0.997 -0.213 5.061e-3 46.915 
1.32 5.207e-3 48.021 0.997 -0.223 0.997 -0.223 5.207e-3 48.021 
1.383 5.362e-3 49.119 0.996 -0.233 0.996 -0.233 5.362e-3 49.119 
1.448 5.526e-3 50.207 0.996 -0.244 0.996 -0.244 5.526e-3 50.207 
1.517 5.699e-3 51.282 0.996 -0.256 0.996 -0.256 5.699e-3 51.282 
1.588 5.883e-3 52.345 0.996 -0.268 0.996 -0.268 5.883e-3 52.345 
1.664 6.076e-3 53.393 0.996 -0.28 0.996 -0.28 6.076e-3 53.393 
1.742 6.28e-3 54.425 0.996 -0.294 0.996 -0.294 6.28e-3 54.425 
1.825 6.496e-3 55.439 0.996 -0.308 0.996 -0.308 6.496e-3 55.439 
1.911 6.724e-3 56.436 0.996 -0.322 0.996 -0.322 6.724e-3 56.436 
2.002 6.964e-3 57.413 0.996 -0.337 0.996 -0.337 6.964e-3 57.413 
2.097 7.217e-3 58.371 0.996 -0.353 0.996 -0.353 7.217e-3 58.371 
2.196 7.484e-3 59.308 0.996 -0.37 0.996 -0.37 7.484e-3 59.308 
2.3 7.766e-3 60.223 0.996 -0.388 0.996 -0.388 7.766e-3 60.223 
2.409 8.062e-3 61.116 0.996 -0.406 0.996 -0.406 8.062e-3 61.116 
2.523 8.374e-3 61.988 0.996 -0.425 0.996 -0.425 8.374e-3 61.988 
2.643 8.702e-3 62.836 0.996 -0.445 0.996 -0.445 8.702e-3 62.836 
2.768 9.048e-3 63.662 0.996 -0.466 0.996 -0.466 9.048e-3 63.662 
2.899 9.411e-3 64.464 0.996 -0.489 0.996 -0.489 9.411e-3 64.464 
3.036 9.793e-3 65.243 0.996 -0.512 0.996 -0.512 9.793e-3 65.243 
3.18 0.01 66 0.996 -0.536 0.996 -0.536 0.01 66 
3.331 0.011 66.733 0.996 -0.561 0.996 -0.561 0.011 66.733 
3.488 0.011 67.442 0.996 -0.588 0.996 -0.588 0.011 67.442 
3.653 0.012 68.129 0.996 -0.616 0.996 -0.616 0.012 68.129 
3.826 0.012 68.794 0.996 -0.645 0.996 -0.645 0.012 68.794 
4.008 0.013 69.435 0.996 -0.675 0.996 -0.675 0.013 69.435 
4.198 0.013 70.055 0.996 -0.707 0.996 -0.707 0.013 70.055 
4.396 0.014 70.652 0.996 -0.741 0.996 -0.741 0.014 70.652 
4.605 0.014 71.228 0.996 -0.776 0.996 -0.776 0.014 71.228 
4.823 0.015 71.783 0.995 -0.812 0.995 -0.812 0.015 71.783 
5.051 0.016 72.317 0.995 -0.851 0.995 -0.851 0.016 72.317 
5.29 0.016 72.83 0.995 -0.891 0.995 -0.891 0.016 72.83 
5.541 0.017 73.324 0.995 -0.933 0.995 -0.933 0.017 73.324 
5.803 0.018 73.797 0.995 -0.977 0.995 -0.977 0.018 73.797 
6.078 0.018 74.251 0.995 -1.023 0.995 -1.023 0.018 74.251 
6.366 0.019 74.686 0.995 -1.072 0.995 -1.072 0.019 74.686 
6.667 0.02 75.102 0.995 -1.123 0.995 -1.123 0.02 75.102 
6.983 0.021 75.5 0.995 -1.176 0.995 -1.176 0.021 75.5 
7.314 0.022 75.88 0.995 -1.231 0.995 -1.231 0.022 75.88 
7.66 0.023 76.243 0.995 -1.289 0.995 -1.289 0.023 76.243 
8.023 0.024 76.588 0.995 -1.35 0.995 -1.35 0.024 76.588 
8.403 0.025 76.917 0.995 -1.414 0.995 -1.414 0.025 76.917 
8.801 0.026 77.229 0.995 -1.481 0.995 -1.481 0.026 77.229 
9.218 0.028 77.525 0.994 -1.551 0.994 -1.551 0.028 77.525 
9.655 0.029 77.804 0.994 -1.624 0.994 -1.624 0.029 77.804 
10.112 0.03 78.069 0.994 -1.701 0.994 -1.701 0.03 78.069 
10.591 0.032 78.317 0.994 -1.782 0.994 -1.782 0.032 78.317 
11.092 0.033 78.551 0.994 -1.866 0.994 -1.866 0.033 78.551 
11.618 0.035 78.769 0.994 -1.954 0.994 -1.954 0.035 78.769 
12.168 0.036 78.973 0.994 -2.046 0.994 -2.046 0.036 78.973 
12.744 0.038 79.162 0.994 -2.143 0.994 -2.143 0.038 79.162 
13.348 0.04 79.336 0.993 -2.244 0.993 -2.244 0.04 79.336 
13.98 0.041 79.497 0.993 -2.35 0.993 -2.35 0.041 79.497 
14.642 0.043 79.643 0.993 -2.461 0.993 -2.461 0.043 79.643 
15.335 0.045 79.775 0.993 -2.577 0.993 -2.577 0.045 79.775 
16.062 0.047 79.893 0.993 -2.699 0.993 -2.699 0.047 79.893 
16.822 0.05 79.997 0.993 -2.826 0.993 -2.826 0.05 79.997 
17.619 0.052 80.087 0.992 -2.96 0.992 -2.96 0.052 80.087 
18.454 0.054 80.163 0.992 -3.099 0.992 -3.099 0.054 80.163 
19.328 0.057 80.225 0.992 -3.246 0.992 -3.246 0.057 80.225 
20.243 0.06 80.273 0.992 -3.399 0.992 -3.399 0.06 80.273 
21.202 0.062 80.307 0.991 -3.559 0.991 -3.559 0.062 80.307 
22.206 0.065 80.328 0.991 -3.727 0.991 -3.727 0.065 80.328 
23.258 0.068 80.333 0.991 -3.902 0.991 -3.902 0.068 80.333 
24.359 0.072 80.325 0.99 -4.086 0.99 -4.086 0.072 80.325 
25.513 0.075 80.302 0.99 -4.278 0.99 -4.278 0.075 80.302 
26.721 0.078 80.264 0.99 -4.48 0.99 -4.48 0.078 80.264 
27.987 0.082 80.212 0.989 -4.691 0.989 -4.691 0.082 80.212 
29.312 0.086 80.144 0.989 -4.911 0.989 -4.911 0.086 80.144 
30.7 0.09 80.061 0.988 -5.142 0.988 -5.142 0.09 80.061 
32.154 0.094 79.962 0.988 -5.383 0.988 -5.383 0.094 79.962 
33.677 0.099 79.848 0.987 -5.636 0.987 -5.636 0.099 79.848 
35.272 0.103 79.717 0.987 -5.901 0.987 -5.901 0.103 79.717 
36.943 0.108 79.569 0.986 -6.177 0.986 -6.177 0.108 79.569 
38.693 0.113 79.405 0.986 -6.466 0.986 -6.466 0.113 79.405 
40.525 0.118 79.223 0.985 -6.769 0.985 -6.769 0.118 79.223 
42.444 0.124 79.024 0.984 -7.086 0.984 -7.086 0.124 79.024 
44.455 0.129 78.806 0.983 -7.417 0.983 -7.417 0.129 78.806 
46.56 0.135 78.569 0.982 -7.763 0.982 -7.763 0.135 78.569 
48.765 0.142 78.313 0.981 -8.125 0.981 -8.125 0.142 78.313 
51.075 0.148 78.037 0.98 -8.503 0.98 -8.503 0.148 78.037 
53.494 0.155 77.741 0.979 -8.898 0.979 -8.898 0.155 77.741 
56.027 0.162 77.425 0.978 -9.311 0.978 -9.311 0.162 77.425 
58.681 0.169 77.086 0.976 -9.742 0.976 -9.742 0.169 77.086 
61.46 0.177 76.726 0.975 -10.193 0.975 -10.193 0.177 76.726 
64.371 0.185 76.342 0.973 -10.663 0.973 -10.663 0.185 76.342 
67.42 0.194 75.936 0.971 -11.154 0.971 -11.154 0.194 75.936 
70.613 0.202 75.505 0.969 -11.667 0.969 -11.667 0.202 75.505 
73.957 0.212 75.049 0.967 -12.202 0.967 -12.202 0.212 75.049 
77.46 0.221 74.569 0.965 -12.759 0.965 -12.759 0.221 74.569 
81.128 0.231 74.062 0.963 -13.341 0.963 -13.341 0.231 74.062 
84.971 0.241 73.528 0.96 -13.946 0.96 -13.946 0.241 73.528 
88.995 0.252 72.967 0.957 -14.577 0.957 -14.577 0.252 72.967 
93.21 0.263 72.377 0.954 -15.234 0.954 -15.234 0.263 72.377 
97.624 0.274 71.759 0.951 -15.918 0.951 -15.918 0.274 71.759 
102.248 0.286 71.112 0.947 -16.629 0.947 -16.629 0.286 71.112 
107.091 0.299 70.435 0.943 -17.368 0.943 -17.368 0.299 70.435 
112.163 0.311 69.727 0.939 -18.136 0.939 -18.136 0.311 69.727 
117.475 0.325 68.988 0.934 -18.932 0.934 -18.932 0.325 68.988 
123.039 0.338 68.218 0.929 -19.759 0.929 -19.759 0.338 68.218 
128.866 0.352 67.416 0.924 -20.615 0.924 -20.615 0.352 67.416 
134.969 0.367 66.582 0.918 -21.502 0.918 -21.502 0.367 66.582 
141.361 0.382 65.716 0.912 -22.419 0.912 -22.419 0.382 65.716 
148.056 0.397 64.817 0.905 -23.367 0.905 -23.367 0.397 64.817 
155.069 0.412 63.887 0.898 -24.346 0.898 -24.346 0.412 63.887 
162.413 0.428 62.924 0.891 -25.356 0.891 -25.356 0.428 62.924 
170.105 0.445 61.93 0.883 -26.395 0.883 -26.395 0.445 61.93 
178.161 0.461 60.905 0.874 -27.465 0.874 -27.465 0.461 60.905 
186.599 0.478 59.849 0.865 -28.563 0.865 -28.563 0.478 59.849 
195.437 0.495 58.764 0.855 -29.69 0.855 -29.69 0.495 58.764 
204.693 0.513 57.65 0.845 -30.844 0.845 -30.844 0.513 57.65 
214.388 0.53 56.508 0.834 -32.025 0.834 -32.025 0.53 56.508 
224.541 0.548 55.341 0.823 -33.23 0.823 -33.23 0.548 55.341 
235.176 0.566 54.149 0.811 -34.459 0.811 -34.459 0.566 54.149 
246.314 0.584 52.935 0.798 -35.709 0.798 -35.709 0.584 52.935 
257.98 0.602 51.699 0.785 -36.979 0.785 -36.979 0.602 51.699 
270.198 0.619 50.446 0.771 -38.266 0.771 -38.266 0.619 50.446 
282.995 0.637 49.176 0.757 -39.568 0.757 -39.568 0.637 49.176 
296.398 0.655 47.892 0.742 -40.884 0.742 -40.884 0.655 47.892 
310.436 0.672 46.597 0.727 -42.209 0.727 -42.209 0.672 46.597 
325.139 0.689 45.293 0.711 -43.543 0.711 -43.543 0.689 45.293 
340.538 0.706 43.984 0.695 -44.881 0.695 -44.881 0.706 43.984 
356.666 0.722 42.671 0.678 -46.222 0.678 -46.222 0.722 42.671 
373.558 0.738 41.357 0.661 -47.563 0.661 -47.563 0.738 41.357 
391.25 0.754 40.046 0.644 -48.9 0.644 -48.9 0.754 40.046 
409.781 0.769 38.739 0.626 -50.232 0.626 -50.232 0.769 38.739 
429.188 0.783 37.44 0.608 -51.556 0.608 -51.556 0.783 37.44 
449.515 0.797 36.151 0.59 -52.869 0.59 -52.869 0.797 36.151 
470.805 0.811 34.874 0.572 -54.168 0.572 -54.168 0.811 34.874 
493.103 0.824 33.612 0.554 -55.453 0.554 -55.453 0.824 33.612 
516.457 0.836 32.366 0.535 -56.72 0.535 -56.72 0.836 32.366 
540.917 0.848 31.139 0.517 -57.968 0.517 -57.968 0.848 31.139 
566.536 0.859 29.931 0.499 -59.195 0.499 -59.195 0.859 29.931 
593.368 0.87 28.746 0.481 -60.4 0.481 -60.4 0.87 28.746 
621.47 0.88 27.583 0.463 -61.58 0.463 -61.58 0.88 27.583 
650.904 0.889 26.444 0.445 -62.737 0.445 -62.737 0.889 26.444 
681.732 0.898 25.33 0.428 -63.867 0.428 -63.867 0.898 25.33 
714.019 0.906 24.241 0.411 -64.971 0.411 -64.971 0.906 24.241 
747.836 0.914 23.179 0.394 -66.048 0.394 -66.048 0.914 23.179 
783.255 0.921 22.143 0.377 -67.097 0.377 -67.097 0.921 22.143 
820.351 0.928 21.134 0.361 -68.119 0.361 -68.119 0.928 21.134 
859.204 0.934 20.151 0.345 -69.114 0.345 -69.114 0.934 20.151 
899.897 0.94 19.195 0.329 -70.08 0.329 -70.08 0.94 19.195 
942.517 0.946 18.265 0.313 -71.019 0.313 -71.019 0.946 18.265 
987.156 0.951 17.361 0.298 -71.931 0.298 -71.931 0.951 17.361 
1033.909 0.955 16.482 0.284 -72.815 0.284 -72.815 0.955 16.482 
1082.877 0.96 15.629 0.269 -73.674 0.269 -73.674 0.96 15.629 
1134.163 0.964 14.799 0.255 -74.506 0.255 -74.506 0.964 14.799 
1187.879 0.967 13.994 0.242 -75.312 0.242 -75.312 0.967 13.994 
1244.138 0.971 13.211 0.229 -76.094 0.229 -76.094 0.971 13.211 
1303.062 0.974 12.45 0.216 -76.85 0.216 -76.85 0.974 12.45 
1364.777 0.977 11.71 0.203 -77.583 0.203 -77.583 0.977 11.71 
1429.415 0.979 10.99 0.191 -78.292 0.191 -78.292 0.979 10.99 
1497.114 0.982 10.289 0.179 -78.977 0.179 -78.977 0.982 10.289 
1568.019 0.984 9.607 0.167 -79.639 0.167 -79.639 0.984 9.607 
1642.283 0.986 8.942 0.155 -80.277 0.155 -80.277 0.986 8.942 
1720.063 0.987 8.293 0.144 -80.892 0.144 -80.892 0.987 8.293 
1801.528 0.989 7.66 0.133 -81.482 0.133 -81.482 0.989 7.66 
1886.851 0.991 7.04 0.123 -82.046 0.123 -82.046 0.991 7.04 
1976.214 0.992 6.434 0.112 -82.583 0.112 -82.583 0.992 6.434 
2069.811 0.993 5.84 0.102 -83.088 0.102 -83.088 0.993 5.84 
2167.84 0.994 5.257 0.092 -83.557 0.092 -83.557 0.994 5.257 
2270.512 0.995 4.684 0.082 -83.982 0.082 -83.982 0.995 4.684 
2378.046 0.995 4.12 0.072 -84.349 0.072 -84.349 0.995 4.12 
2490.674 0.996 3.565 0.062 -84.638 0.062 -84.638 0.996 3.565 
2608.635 0.997 3.016 0.053 -84.812 0.053 -84.812 0.997 3.016 
2732.184 0.997 2.473 0.043 -84.801 0.043 -84.801 0.997 2.473 
2861.584 0.997 1.935 0.034 -84.457 0.034 -84.457 0.997 1.935 
2997.112 0.997 1.4 0.025 -83.412 0.025 -83.412 0.997 1.4 
3139.06 0.998 0.869 0.015 -80.413 0.015 -80.413 0.998 0.869 
3287.73 0.998 0.34 6.413e-3 -67.197 6.413e-3 -67.197 0.998 0.34 
3443.441 0.997 -0.189 4.198e-3 51.647 4.198e-3 51.647 0.997 -0.189 
3606.527 0.997 -0.718 0.013 76.869 0.013 76.869 0.997 -0.718 
3777.337 0.997 -1.248 0.022 81.055 0.022 81.055 0.997 -1.248 
3956.237 0.996 -1.78 0.031 82.425 0.031 82.425 0.996 -1.78 
4143.61 0.996 -2.315 0.041 82.893 0.041 82.893 0.996 -2.315 
4339.857 0.995 -2.855 0.05 82.956 0.05 82.956 0.995 -2.855 
4545.398 0.994 -3.399 0.059 82.8 0.059 82.8 0.994 -3.399 
4760.675 0.993 -3.95 0.069 82.51 0.069 82.51 0.993 -3.95 
4986.147 0.992 -4.508 0.079 82.13 0.079 82.13 0.992 -4.508 
5222.297 0.991 -5.073 0.089 81.683 0.089 81.683 0.991 -5.073 
5469.633 0.99 -5.648 0.099 81.185 0.099 81.185 0.99 -5.648 
5728.682 0.988 -6.233 0.109 80.644 0.109 80.644 0.988 -6.233 
6000 0.986 -6.828 0.119 80.067 0.119 80.067 0.986 -6.828 
