!---------------------------------------------------------------------
! ZVM, 3.55
!---------------------------------------------------------------------
! symbol freq-unit parameter-type data-format keyword impedance-ohm
#        HZ        S              RI          R       50
!---------------------------------------------------------------------
! freq                reS11          imS11           reS21          imS21           reS12          imS12           reS22          imS22           
  1.00000000000E+07  1.00031        -0.0752988      0.00209503     -1.33393E-05    0.000204753    -0.000110323    1.01084        -0.0996818    
  2.99800000000E+07  0.976879       -0.257563      -0.000315674    -0.000245956   -0.00020181     -0.000127599    0.945984       -0.341703     
  4.99600000000E+07  0.899672       -0.435038       0.000381319    -0.000186038    0.00059378     -0.000738287    0.815184       -0.567573     
  6.99400000000E+07  0.811566       -0.57477        0.000293861     0.000402311   -2.65474E-05     2.29525E-05    0.62883        -0.757716     
  8.99200000000E+07  0.714638       -0.71039       -0.000202353    -0.000431907   -1.85703E-05     1.40738E-05    0.371202       -0.870067     
  1.09900000000E+08  0.60449        -0.810722      -0.000741725     0.000362025   -0.000230361    -4.77748E-05    0.053205       -0.749958     
  1.29880000000E+08  0.4699         -0.898596      -0.000966958     0.00228548     2.85776E-05     4.44635E-05    0.129417       -0.497013     
  1.49860000000E+08  0.33959        -0.960095       0.00103201      0.00341656     3.42685E-05     6.85902E-05    0.230326       -0.630265     
  1.69840000000E+08  0.19816        -0.999817       0.00334396      0.00361016    -5.94945E-06     6.71822E-05    0.130454       -0.760723     
  1.89820000000E+08  0.0597344      -1.0205         0.00567309      0.00279333    -8.36251E-05    -1.50458E-05   -0.00945997     -0.811217     
  2.09800000000E+08 -0.0724764      -1.01464        0.00856521      0.00129508    -7.46191E-05     1.60049E-05   -0.144589       -0.809708     
  2.29780000000E+08 -0.196457       -0.994552       0.0114241      -0.00189129    -9.21207E-05    -4.77757E-05   -0.2546         -0.780851     
  2.49760000000E+08 -0.306993       -0.966627       0.013124       -0.00769548    -4.99957E-06    -3.25643E-05   -0.34102        -0.739064     
  2.69740000000E+08 -0.408968       -0.930694       0.0108239      -0.0144633     -8.64117E-05     4.96397E-05   -0.406337       -0.708887     
  2.89720000000E+08 -0.506006       -0.88474        0.00536584     -0.0194542     -8.39176E-05    -1.28629E-05   -0.470093       -0.686492     
  3.09700000000E+08 -0.590186       -0.831641      -0.0017002      -0.0209777     -3.53607E-05    -3.43954E-06   -0.547477       -0.665008     
  3.29680000000E+08 -0.667584       -0.772496      -0.00829724     -0.0193895      1.81029E-05     4.6345E-05    -0.632759       -0.626786     
  3.49660000000E+08 -0.739392       -0.704832      -0.0125739      -0.0153672      5.15954E-05     5.61885E-06   -0.712899       -0.569497     
  3.69640000000E+08 -0.80295        -0.632217      -0.013932       -0.0113688      3.49807E-05     4.89304E-05   -0.7824         -0.495526     
  3.89620000000E+08 -0.855548       -0.5577        -0.0139847      -0.00866129     4.14079E-05     0.000103822   -0.841402       -0.417309     
  4.09600000000E+08 -0.901991       -0.481509      -0.0128464      -0.00733618     1.0095E-05      7.57891E-05   -0.880555       -0.325416     
  4.29580000000E+08 -0.939121       -0.404416      -0.0124584      -0.00825387     4.61402E-05     4.48447E-05   -0.908925       -0.254959     
  4.49560000000E+08 -0.968443       -0.329042      -0.014025       -0.0106232     -2.29938E-05     4.55915E-05   -0.932175       -0.171693     
  4.69540000000E+08 -0.990562       -0.256379      -0.0190538      -0.0117886      4.11266E-06     7.49826E-05   -0.945576       -0.0994803    
  4.89520000000E+08 -1.00806        -0.186945      -0.0247245      -0.00961985    -3.19205E-05     3.77051E-05   -0.953795       -0.0288003    
  5.09500000000E+08 -1.02069        -0.121253      -0.0289922      -0.00497986    -2.07992E-05     3.7568E-05    -0.960617        0.044352     
  5.29480000000E+08 -1.02785        -0.0557155     -0.0305127       0.000306606   -3.59536E-05     4.92812E-05   -0.958697        0.119907     
  5.49460000000E+08 -1.03076         0.00722138    -0.0308074       0.00373185    -3.99742E-05     3.06524E-05   -0.952616        0.193648     
  5.69440000000E+08 -1.03139         0.068263      -0.0324235       0.00652176     3.54981E-06     4.30458E-05   -0.936042        0.267784     
  5.89420000000E+08 -1.02839         0.132331      -0.0345172       0.0108011      2.45172E-05     4.81322E-05   -0.915091        0.340707     
  6.09400000000E+08 -1.0195          0.191574      -0.035576        0.0160374     -3.15262E-05     4.10414E-05   -0.888037        0.409741     
  6.29380000000E+08 -1.00806         0.251263      -0.0346075       0.0211357      5.54223E-05     3.34289E-05   -0.855782        0.475384     
  6.49360000000E+08 -0.995014        0.310884      -0.0343823       0.0245622      2.31583E-05     6.57934E-05   -0.819221        0.540482     
  6.69340000000E+08 -0.976285        0.369129      -0.0356005       0.0291104      6.1809E-05      8.21179E-05   -0.775721        0.601647     
  6.89320000000E+08 -0.952056        0.4249        -0.0359979       0.0358674      0.000117342     4.49691E-05   -0.726338        0.661936     
  7.09300000000E+08 -0.923181        0.480752      -0.0339411       0.0429497      4.25831E-05    -1.12954E-05   -0.672485        0.717257     
  7.29280000000E+08 -0.890972        0.53344       -0.0317471       0.0482343      3.97218E-05     3.10581E-05   -0.609735        0.769224     
  7.49260000000E+08 -0.855258        0.588702      -0.0315789       0.0553         7.48677E-05     7.24058E-05   -0.544515        0.817953     
  7.69240000000E+08 -0.816174        0.634462      -0.0300853       0.0660581      3.85656E-05     3.25147E-05   -0.474137        0.858603     
  7.89220000000E+08 -0.777317        0.68002       -0.0241174       0.0789319      4.95361E-05     1.37981E-05   -0.405311        0.891869     
  8.09200000000E+08 -0.738137        0.722159      -0.0140402       0.0879029      3.40619E-05     3.31939E-05   -0.331           0.922911     
  8.29180000000E+08 -0.695599        0.765953      -0.00823158      0.0946788      3.26606E-05     2.63732E-05   -0.256618        0.945491     
  8.49160000000E+08 -0.653717        0.803486      -0.00703526      0.109658       5.34051E-05     1.82029E-05   -0.180177        0.961675     
  8.69140000000E+08 -0.610388        0.841974       0.00367908      0.135432       0.000173858     4.57412E-05   -0.0983031       0.974594     
  8.89120000000E+08 -0.567179        0.879297       0.0284855       0.161589       3.67068E-05    -0.000126284   -0.0104332       0.978223     
  9.09100000000E+08 -0.516837        0.91556        0.0559191       0.178766      -2.04582E-05    -0.000115741    0.0807535       0.972171     
  9.29080000000E+08 -0.462837        0.947526       0.0807748       0.212441      -6.70385E-05    -7.05735E-05    0.172374        0.955669     
  9.49060000000E+08 -0.408031        0.975198       0.134903        0.270213      -0.000184445    -8.62233E-05    0.262834        0.929171     
  9.69040000000E+08 -0.349426        0.999358       0.249212        0.337642      -0.000452191     1.24073E-06    0.352132        0.891927     
  9.89020000000E+08 -0.282808        1.01613        0.459784        0.38328       -0.000583227     0.00020447     0.435817        0.843622     
  1.00900000000E+09 -0.209523        1.0136         0.880379        0.355567      -0.000905566     0.000782212    0.503274        0.785792     
  1.02898000000E+09 -0.161756        0.961161       1.56197        -0.588694      -0.000384679     0.00232638     0.555727        0.745392     
  1.04896000000E+09 -0.18655         0.985276       0.182949       -1.41478        0.00195888      0.00148336     0.664011        0.702388     
  1.06894000000E+09 -0.127758        1.02806       -0.34604        -0.79474        0.00174387      0.000156567    0.748625        0.603388     
  1.08892000000E+09 -0.062888        1.03929       -0.348427       -0.465326       0.00133153     -0.00036702     0.811315        0.497864     
  1.10890000000E+09  0.00131817      1.04727       -0.321914       -0.334589       0.00100413     -0.000456642    0.859806        0.38831      
  1.12888000000E+09  0.0626695       1.04912       -0.322496       -0.252522       0.000875352    -0.000511913    0.895387        0.273776     
  1.14886000000E+09  0.12993         1.0433        -0.329276       -0.169441       0.000803371    -0.000567855    0.913078        0.154131     
  1.16884000000E+09  0.183193        1.03804       -0.302329       -0.0859071      0.000749235    -0.000834055    0.918362        0.035835     
  1.18882000000E+09  0.245333        1.03161       -0.259699       -0.0516606      0.000581704    -0.000875381    0.906285       -0.0820073    
  1.20880000000E+09  0.30524         1.01978       -0.247832       -0.0365268      0.000411352    -0.000815458    0.878811       -0.201242     
  1.22878000000E+09  0.370321        1.00654       -0.249055       -0.00903737     0.000476874    -0.000862204    0.835707       -0.317572     
  1.24876000000E+09  0.433182        0.985717      -0.241987        0.029034       0.00044368     -0.000942001    0.775665       -0.43006      
  1.26874000000E+09  0.498699        0.960061      -0.222009        0.0618236      0.000215182    -0.00107748     0.702314       -0.53314      
  1.28872000000E+09  0.562365        0.92895       -0.202898        0.0835319      3.34706E-05    -0.00108077     0.614459       -0.628917     
  1.30870000000E+09  0.627551        0.892202      -0.185454        0.107977      -3.38158E-05    -0.00113576     0.515161       -0.70757      
  1.32868000000E+09  0.690704        0.850935      -0.157257        0.129182      -0.000300193    -0.0012139      0.41106        -0.771566     
  1.34866000000E+09  0.748986        0.80431       -0.13115         0.13221       -0.000534285    -0.0010818      0.299708       -0.816487     
  1.36864000000E+09  0.802838        0.757922      -0.122835        0.135315      -0.000578012    -0.000918955    0.186962       -0.849706     
  1.38862000000E+09  0.850897        0.706336      -0.115522        0.153444      -0.000574143    -0.000894713    0.0673506      -0.867182     
  1.40860000000E+09  0.899645        0.65228       -0.0940186       0.181059      -0.000547292    -0.00094653    -0.0487544      -0.867843     
  1.42858000000E+09  0.942561        0.592289      -0.0495346       0.194267      -0.0008583      -0.000900182   -0.164408       -0.854131     
  1.44856000000E+09  0.981479        0.533535      -0.0196075       0.17862       -0.00106341     -0.000943494   -0.276343       -0.827353     
  1.46854000000E+09  1.02024         0.463448      -0.00947851      0.178407      -0.0011949      -0.000685633   -0.379664       -0.786252     
  1.48852000000E+09  1.04996         0.392172       0.0158638       0.193909      -0.00120298     -0.000431906   -0.471443       -0.739289     
  1.50850000000E+09  1.07455         0.311672       0.0726665       0.194989      -0.00140955     -0.000283352   -0.551682       -0.68424      
  1.52848000000E+09  1.09324         0.231807       0.128049        0.14043       -0.00131481      0.000218897   -0.628245       -0.633025     
  1.54846000000E+09  1.10592         0.151305       0.110717        0.0752728     -0.0010456       0.000304784   -0.708315       -0.568327     
  1.56844000000E+09  1.11205         0.0701117      0.0820935       0.064144      -0.000931798     0.000150722   -0.773094       -0.485921     
  1.58842000000E+09  1.11123        -0.0124806      0.0755339       0.0642168     -0.000980506     0.000141265   -0.823969       -0.397723     
  1.60840000000E+09  1.10408        -0.0926454      0.07363         0.0594342     -0.00103461      0.000193534   -0.864248       -0.306378     
  1.62838000000E+09  1.09282        -0.17335        0.0708221       0.0589073     -0.00101254      0.000383322   -0.894096       -0.21399      
  1.64836000000E+09  1.07251        -0.246823       0.0745981       0.0614964     -0.000922738     0.000487842   -0.912699       -0.124315     
  1.66834000000E+09  1.04135        -0.340133       0.0866811       0.0572496     -0.000902081     0.000506793   -0.923946       -0.0372308    
  1.68832000000E+09  1.00666        -0.414957       0.0958228       0.0429644     -0.000898913     0.000496171   -0.930053        0.0517351    
  1.70830000000E+09  0.968706       -0.490949       0.0924874       0.0274293     -0.000927568     0.000642325   -0.924544        0.133284     
  1.72828000000E+09  0.922933       -0.563835       0.0873476       0.0226484     -0.000826732     0.00086709    -0.911652        0.211136     
  1.74826000000E+09  0.875333       -0.627865       0.0893534       0.0192375     -0.000628647     0.000808086   -0.891949        0.289811     
  1.76824000000E+09  0.824434       -0.691961       0.0931762       0.0100059     -0.00050135      0.000701631   -0.862502        0.363666     
  1.78822000000E+09  0.770491       -0.755451       0.0921415      -0.00383984    -0.000535854     0.000732095   -0.82781         0.436972     
  1.80820000000E+09  0.709488       -0.814652       0.0832716      -0.0151486     -0.000429937     0.000816689   -0.784993        0.504712     
  1.82818000000E+09  0.64131        -0.873104       0.0726077      -0.0206569     -0.000311952     0.000883695   -0.738547        0.569303     
  1.84816000000E+09  0.568183       -0.925614       0.0611633      -0.022274      -0.000254732     0.000864397   -0.695244        0.625828     
  1.86814000000E+09  0.48977        -0.973819       0.0482967      -0.0192755     -0.000191471     0.000836029   -0.644409        0.679644     
  1.88812000000E+09  0.40381        -1.01446        0.0356422      -0.00850101    -0.000111706     0.000735827   -0.594748        0.723024     
  1.90810000000E+09  0.31499        -1.04488        0.0260038       0.0106701     -0.000134487     0.000624102   -0.548605        0.764393     
  1.92808000000E+09  0.228968       -1.05998        0.0222916       0.0414183     -0.00021849      0.000354954   -0.497516        0.802727     
  1.94806000000E+09  0.141737       -1.06896        0.0366887       0.0866442     -0.000412112     0.000177736   -0.445019        0.838649     
  1.96804000000E+09  0.0538438      -1.06649        0.0888433       0.129586      -0.000671711     0.000123666   -0.385976        0.872361     
  1.98802000000E+09 -0.033604       -1.05519        0.161054        0.129413      -0.00113567      0.000306763   -0.310969        0.909096     
  2.00800000000E+09 -0.113435       -1.04073        0.21048         0.129639      -0.0016507       0.000634448   -0.254755        0.944145     
  2.02798000000E+09 -0.194815       -1.02098        0.291528        0.135648      -0.0017367       0.00128869    -0.174047        0.978584     
  2.04796000000E+09 -0.278936       -0.996317       0.413621        0.0986182     -0.00156647      0.00165785    -0.0844861       1.00427      
  2.06794000000E+09 -0.36228        -0.966696       0.532282       -0.0156863     -0.00174148      0.00190359     0.00957213      1.02325      
  2.08792000000E+09 -0.445274       -0.931533       0.589219       -0.183123      -0.00177498      0.00235538     0.110338        1.03034      
  2.10790000000E+09 -0.530457       -0.885812       0.592383       -0.347817      -0.00166024      0.00288918     0.214081        1.02301      
  2.12788000000E+09 -0.610321       -0.828547       0.571633       -0.524644      -0.00162662      0.00349165     0.319298        1.00357      
  2.14786000000E+09 -0.686602       -0.754491       0.477918       -0.703648      -0.00157925      0.00419326     0.426252        0.970575     
  2.16784000000E+09 -0.755688       -0.668317       0.370469       -0.805131      -0.00135577      0.0053071      0.534425        0.917256     
  2.18782000000E+09 -0.814771       -0.566715       0.349491       -0.939687      -0.000265582     0.00615232     0.645124        0.852458     
  2.20780000000E+09 -0.866477       -0.450177       0.29337        -1.24024        0.000400543     0.00605685     0.74794         0.766475     
  2.22778000000E+09 -0.898212       -0.32123       -0.00959725     -1.6768        -0.000140201     0.00677322     0.846063        0.65984      
  2.24776000000E+09 -0.9136         -0.185387      -0.747098       -1.91207       -0.000177382     0.00931298     0.938927        0.533447     
  2.26774000000E+09 -0.909178       -0.0392943     -1.27979        -1.59005        0.0016471       0.0129723      1.01991         0.376705     
  2.28772000000E+09 -0.871261        0.115118      -1.55344        -1.64393        0.00607392      0.0156298      1.08143         0.186546     
  2.30770000000E+09 -0.790276        0.264447      -2.45145        -1.84895        0.00999096      0.0165804      1.11364        -0.0467282    
  2.32768000000E+09 -0.654396        0.396171      -4.04482        -1.27344        0.0152822       0.0200734      1.0847         -0.330809     
  2.34766000000E+09 -0.466662        0.471509      -5.21355         0.749323       0.0274449       0.0224875      0.950382       -0.650833     
  2.36764000000E+09 -0.268105        0.464819      -5.14127         3.27437        0.0447319       0.0164534      0.660254       -0.95635      
  2.38762000000E+09 -0.116073        0.352997      -3.61403         5.92449        0.0607917      -0.00152668     0.200493       -1.13164      
  2.40760000000E+09 -0.0832562       0.226605      -0.49969         7.08496        0.0663249      -0.0317812     -0.333153       -1.0506       
  2.42758000000E+09 -0.125202        0.176858       2.23131         6.8765         0.0521218      -0.0642925     -0.730647       -0.712179     
  2.44756000000E+09 -0.143498        0.218165       5.32889         5.63892        0.0202022      -0.0847795     -0.910605       -0.278395     
  2.46754000000E+09 -0.0865491       0.271686       7.24243         1.96231       -0.0145067      -0.0826312     -0.87558         0.107793     
  2.48752000000E+09  0.0197965       0.289915       5.71252        -1.07294       -0.0370037      -0.0707084     -0.75744         0.411138     
  2.50750000000E+09  0.126631        0.244788       4.56341        -1.89248       -0.0567271      -0.0576179     -0.564785        0.597523     
  2.52748000000E+09  0.215125        0.17735        3.96853        -3.00148       -0.0735186      -0.0351602     -0.392758        0.720783     
  2.54746000000E+09  0.279396        0.0802982      2.54568        -4.30171       -0.0761151      -0.00734826    -0.193173        0.786968     
  2.56744000000E+09  0.314611       -0.0119115      0.406832       -4.40944       -0.0688195       0.0123302     -0.0303856       0.792407     
  2.58742000000E+09  0.335862       -0.102379      -0.8026         -3.43328       -0.0618029       0.027361       0.114914        0.774388     
  2.60740000000E+09  0.345896       -0.187669      -1.31561        -2.76228       -0.0508672       0.0424318      0.234208        0.73538      
  2.62738000000E+09  0.346077       -0.274481      -1.83287        -2.17475       -0.0347621       0.0521413      0.332809        0.687916     
  2.64736000000E+09  0.333704       -0.367042      -2.16704        -1.41074       -0.0192042       0.055284       0.414846        0.636531     
  2.66734000000E+09  0.302964       -0.462803      -2.17756        -0.689104      -0.00466384      0.0556984      0.484911        0.585938     
